# HZ S RI R 50
3500000 0.9771970282352496 -0.2105580971527927
3543651 0.9778811346565482 -0.2147880809001665
3587302 0.9753779927800068 -0.2159449685400439
3630953 0.9725831773918356 -0.21915765296277256
3674604 0.9758749419815176 -0.22402785151658425
3718255 0.9741110865063715 -0.22543054125456297
3761906 0.9694895606636156 -0.22704870320422327
3805557 0.9717026545375226 -0.2317335976036837
3849208 0.9704275588460183 -0.23463270369315864
3892859 0.9707186893061225 -0.23689833845287794
3936510 0.9698498162655323 -0.2398096611973559
3980161 0.9699026908267419 -0.24273299269924753
4023812 0.9797857337979247 -0.2212620374846947
4067463 0.969354834575395 -0.24907251407797645
4111114 0.9664191614227453 -0.2512591426025869
4154765 0.9640769477369121 -0.25594701253463853
4198416 0.9771933191196759 -0.24870550024848212
4242067 0.9637449772623209 -0.26126741369611606
4285718 0.9729368273910114 -0.24969340886886057
4329369 0.9621870918760745 -0.26882632714833865
4373020 0.9534530857137503 -0.26869862945347267
4416671 0.9511673796656133 -0.288942149182876
4460322 0.9657473252222877 -0.2645874427016751
4503973 0.9477977899125639 -0.2966942816519051
4547624 0.9653872596719628 -0.2699590369104725
4591275 0.9468342187419122 -0.3015635084304949
4634926 0.9534117855729095 -0.2940660481006923
4678577 0.9542833163466216 -0.29770559760662507
4722228 0.9584311212763356 -0.2878269166653079
4765879 0.9484334345292647 -0.30636191603500296
4809530 0.9576252516540359 -0.2925462469704323
4853181 0.9619311537614156 -0.2996876083544125
4896832 0.9428173639470743 -0.3248286251379366
4940483 0.9325572658596738 -0.33806499967135073
4984134 0.9494823904764415 -0.3159590107852102
5027785 0.9392423481988817 -0.33438337432102694
5071436 0.9354298806524607 -0.34244086288551384
5115087 0.9335311542105738 -0.34881999868426694
5158738 0.9307485826848472 -0.35651813941764304
5202389 0.922347897074527 -0.3653055811696825
5246040 0.9200431278184216 -0.3733759941857058
5289691 0.9136722439708679 -0.38344491698466965
5333342 0.9032000908060841 -0.39619372002315884
5376993 0.8946223037897963 -0.411330477837063
5420644 0.8805036802731367 -0.42685472260701685
5464295 0.8645428556620383 -0.4501945747725974
5507946 0.8326189816955066 -0.47925280113422114
5551597 0.7816478060595843 -0.5161057714204477
5595248 0.6829918635383811 -0.556247713016045
5638899 0.4725050756886527 -0.544622402278879
5682550 0.2365784025052616 -0.21135593128847222
5726201 0.5426300457688096 0.15270609352492948
5769852 0.8184067926778781 0.08366905520973264
5813503 0.9117034183597692 -0.020327439577827417
5857154 0.9435547605939741 -0.09325578625356973
5900805 0.9554915264842047 -0.13904789804875933
5944456 0.9612500131005902 -0.17436553524392523
5988107 0.9620697622182547 -0.20056633467526944
6031758 0.9596211493971997 -0.21835058214549655
6075409 0.9595296508075561 -0.2346610001447325
6119060 0.9590369881458998 -0.24489987691998616
6162711 0.9584325883182018 -0.2575592226603295
6206362 0.9560159173798516 -0.26841142900306536
6250013 0.9563599308613522 -0.27786965753460746
6293664 0.9540968433047062 -0.2828004390586234
6337315 0.9507773788027739 -0.29108604820477385
6380966 0.9502884575441233 -0.29846310225539746
6424617 0.948106208821354 -0.30076709898486786
6468268 0.9471424700903244 -0.30817498355018147
6511919 0.9470235217047487 -0.3126423034889812
6555570 0.9441293694981396 -0.31758329395865276
6599221 0.9420785122336722 -0.3215391151772719
6642872 0.9433668789211369 -0.32414524627306673
6686523 0.9401885958977745 -0.3299020738669903
6730174 0.939799561256245 -0.334670106357408
6773825 0.9355114974051097 -0.33982088352056417
6817476 0.9360622286456489 -0.3423639990204493
6861127 0.9352063567252625 -0.34673766350983926
6904778 0.934242842566191 -0.34761860868676986
6948429 0.9340621353364378 -0.3538066660985349
6992080 0.9322375811178432 -0.3576300321174237
7035731 0.9301231520836236 -0.3593311010469718
7079382 0.9281512343777081 -0.3631424655298738
7123033 0.9281433876745037 -0.36684714315370914
7166684 0.9281190259013047 -0.3691760983071703
7210335 0.9250511456020156 -0.3728114120004887
7253986 0.9244162340980684 -0.3755047330738766
7297637 0.9225670633636746 -0.3788370716856673
7341288 0.9234526616555817 -0.3803260564706086
7384939 0.9225709851650248 -0.3842980989093102
7428590 0.9209485537427602 -0.38827503304896455
7472241 0.9173905303370076 -0.3902727203407397
7515892 0.9152540898695538 -0.39260268128940495
7559543 0.9167068590634744 -0.3968987366247038
7603194 0.9155333024951974 -0.39864655653786407
7646845 0.9132563087314987 -0.39991595227432525
7690496 0.9127483118225515 -0.4044539879177896
7734147 0.9126179817396602 -0.40775310453109775
7777798 0.9108999946680683 -0.4088980745929952
7821449 0.9109697499141807 -0.409595214480569
7865100 0.9085469380523967 -0.41596511928489543
7908751 0.899093597321045 -0.4308000669762233
7952402 0.9050850847436985 -0.4192891646720626
7996053 0.8952435202759829 -0.43880154416647427
8039704 0.9106590106131017 -0.4088485495547155
8083355 0.8913792978319276 -0.4417228184926684
8127006 0.9087092053387688 -0.41521395988786647
8170657 0.8919150989637824 -0.44752929513224693
8214308 0.9052282465348356 -0.42010033174293454
8257959 0.8893089041240893 -0.4533594262641385
8301610 0.9030779961851697 -0.42560930841341815
8345261 0.886061963980797 -0.4603567944253268
8388912 0.9009846699195873 -0.42934785324878066
8432563 0.8821492188574734 -0.46288943505556923
8476214 0.8969981520703436 -0.4360568762718374
8519865 0.8810312990910691 -0.4670384589378121
8563516 0.8646948040107892 -0.4725099611794506
8607167 0.8760633847780186 -0.4729986767803152
8650818 0.896053172812262 -0.4477656733751677
8694469 0.8764606220102183 -0.47644553221856434
8738120 0.8916278306536636 -0.45021318119548986
8781771 0.8813437622244015 -0.46584726477958344
8825422 0.8345455586659329 -0.5197464525602946
8869073 0.8805426371063885 -0.4712233616575398
8912724 0.876885476474421 -0.4731093119588617
8956375 0.8754452613357522 -0.4764806148878377
9000026 0.8744303202761463 -0.4800862145528942
9043677 0.8725716262238693 -0.4813475045930573
9087328 0.9213476671627507 -0.4506834436583567
9130979 0.8744403256389194 -0.49347300890955353
9174630 0.866353578628915 -0.4871023487874063
9218281 0.8687236865977704 -0.4903243429402849
9261932 0.8644366808184563 -0.49260010686710254
9305583 0.985641222447467 -0.5242087972067463
9349234 0.8647047937066392 -0.4999715623254751
9392885 0.863011714799558 -0.5023630361647666
9436536 0.8618981832981363 -0.5026556704431514
9480187 0.8619446584536342 -0.5073508334669639
9523838 0.8592690346826859 -0.5094403014586283
9567489 0.8584184844785859 -0.51092726385461
9611140 0.8557194385220493 -0.5129977608551259
9654791 0.852797756286988 -0.5154785720975373
9698442 0.8526295927271093 -0.5135321660838751
9742093 0.8518673088338722 -0.5205945499695493
9785744 0.8495609063510731 -0.5228793536375127
9829395 0.8489638191423232 -0.5247044664866899
9873046 0.8459979437472672 -0.5255352822336636
9916697 0.8468627936672078 -0.5312527185654004
9960348 0.8448300228146077 -0.5313310838726635
10003999 0.8448937850244519 -0.5314921517622322
10047650 0.8417379870414636 -0.5362363735771178
10091301 0.8402096071049856 -0.5365923006529784
10134952 0.8397869140532028 -0.5384421829468342
10178603 0.8372227985133398 -0.5420695141148821
10222254 0.8370637011794122 -0.5470689154619409
10265905 0.8350333670481407 -0.5440229748631006
10309556 0.8336289735020962 -0.5488881531233941
10353207 0.8282868333921881 -0.5497491262097726
10396858 0.8308376489243245 -0.5527675464612887
10440509 0.829436863672212 -0.5543182552555906
10484160 0.8258128725584397 -0.5589537882802738
10527811 0.8235325026573488 -0.5569611407697057
10571462 0.8230385656157625 -0.56404723249044
10615113 0.8207630089454793 -0.5665485381057226
10658764 0.8182742546657301 -0.5643696310262002
10702415 0.8200017088025782 -0.567393924984213
10746066 0.8167596741476885 -0.5717490734362115
10789717 0.8144533731654322 -0.5730312877583977
10833368 0.813846153720676 -0.5757923583712513
10877019 0.8134037726866519 -0.5770506703947043
10920670 0.8103978645391509 -0.5805959819553894
10964321 0.810839896143522 -0.5801953382921766
11007972 0.8100319540179978 -0.5836150378465075
11051623 0.8068579432343002 -0.585777097048447
11095274 0.8069223929057041 -0.5889848847968439
11138925 0.8035559682762123 -0.5917610144873064
11182576 0.8021863506955079 -0.5908977644110284
11226227 0.8009009499214931 -0.5924135906801803
11269878 0.799744539466512 -0.5954092720240848
11313529 0.7952765653078693 -0.5978294426793681
11357180 0.7947223444743985 -0.5997233198210399
11400831 0.7921589137739046 -0.603399751502279
11444482 0.7906584241077783 -0.6032375546048695
11488133 0.7886217255547354 -0.6051669141547701
11531784 0.7871579627277646 -0.608859353747541
11575435 0.7854611053233262 -0.6119115946456167
11619086 0.7835007648734519 -0.6126127264617572
11662737 0.783530589750485 -0.6159643071279851
11706388 0.7805343888981805 -0.618372062335803
11750039 0.7808581561015483 -0.619371154856995
11793690 0.7764238089229573 -0.6222202841741822
11837341 0.7758914369199128 -0.6271521191956315
11880992 0.7735774690855178 -0.6245977250866964
11924643 0.7722162208074115 -0.6269690686941704
11968294 0.7708629389741237 -0.6330157396605907
12011945 0.7680652511753738 -0.6326970041818168
12055596 0.7691801365510682 -0.6352558796457176
12099247 0.7682956512359791 -0.6393002014356468
12142898 0.765419493060136 -0.6368635352488531
12186549 0.7631277011309174 -0.6406032622284304
12230200 0.762026125444378 -0.6427000779563372
12273851 0.756223881803487 -0.6462303590561036
12317502 0.7580565477800203 -0.6486610417520554
12361153 0.7538362831104511 -0.6505932697903937
12404804 0.7560058114513925 -0.652605631811568
12448455 0.7553215165447433 -0.6558315895904868
12492106 0.7483610880212219 -0.654348654002711
12535757 0.7492837202334636 -0.6557894788771361
12579408 0.7421579196712313 -0.6557834011071025
12623059 0.7456442531735659 -0.6613822829243323
12666710 0.7416449878104904 -0.6654226611990931
12710361 0.7422877256547908 -0.6650883537308002
12754012 0.738014302104721 -0.6682737251505132
12797663 0.7367270014093246 -0.6676320350824589
12841314 0.7367365899087273 -0.670692996104944
12884965 0.734353558962749 -0.6758068610100688
12928616 0.7273645658474271 -0.6772891270682735
12972267 0.7298350962600682 -0.6761241054578353
13015918 0.7275513793074918 -0.6827337986880032
13059569 0.7230350323905304 -0.6806485832203575
13103220 0.7247911905779995 -0.6820338454101582
13146871 0.6798397938691595 -0.6960059900078053
13190522 0.7117306053971331 -0.6479180634892783
13234173 0.7176846606687232 -0.6892403548819247
13277824 0.719181658962082 -0.6974599107841131
13321475 0.7143575334187897 -0.6930109550080639
13365126 0.7134649857174786 -0.694743076089797
13408777 0.7125102300484998 -0.699628679819984
13452428 0.7077507806820242 -0.696519031474787
13496079 0.7933005675613168 -0.632278880054243
13539730 0.7062958267240004 -0.7027973847145924
13583381 0.7031267098095878 -0.7034527262295038
13627032 0.7128960932682838 -0.7022986586796239
13670683 0.6972108694830148 -0.6923308205444739
13714334 0.6986530436002847 -0.7126775543959657
13757985 0.6940397606500168 -0.7138734509453037
13801636 0.6925419726909028 -0.7143142750041889
13845287 0.6910770396446257 -0.7146709254686204
13888938 0.6909854916207203 -0.7158675543895167
13932589 0.686132362240353 -0.7218289594168511
13976240 0.6831394999061959 -0.7201347746296333
14019891 0.683498385800312 -0.7253401177574837
14063542 0.681833044415183 -0.7271583608460653
14107193 0.6775939229096679 -0.7269768182817797
14150844 0.67376661422355 -0.7306232448060594
14194495 0.6747794328729216 -0.7294450696025057
14238146 0.6717546560034049 -0.7325032510054317
14281797 0.6694296438373977 -0.7350368945732794
14325448 0.6666283097758782 -0.739049331679885
14369099 0.6643249076747065 -0.7384254901129691
14412750 0.6627839180187012 -0.740117998758921
14456401 0.6596882290351539 -0.7408910163418644
14500052 0.6610046087588132 -0.7452495151085751
14543703 0.6565195373104168 -0.7443093191351587
14587354 0.6533195461551748 -0.7464029302326934
14631005 0.6506418958205941 -0.7518464352229509
14674656 0.6502881130439202 -0.7519398506708926
14718307 0.6490788461437649 -0.7536262378039384
14761958 0.6444997490817043 -0.7560789335429408
14805609 0.6438854917535259 -0.7562566591976037
14849260 0.6418278901704021 -0.7571090905829594
14892911 0.6390847904587394 -0.7641059245449039
14936562 0.6356134114088072 -0.7630701947176736
14980213 0.6356802944517577 -0.7633007240845859
15023864 0.6311447713058946 -0.7648102901575212
15067515 0.6287980507706505 -0.7690196430900528
15111166 0.6257305071492726 -0.7714280548200891
15154817 0.6213119300367629 -0.7718700437479856
15198468 0.6237227885338517 -0.7708830633217831
15242119 0.617809200983343 -0.7750152330013822
15285770 0.6171590382327058 -0.7766942246408457
15329421 0.6137779118036119 -0.7798125848359717
15373072 0.612760900386899 -0.7799808481995024
15416723 0.6124582321769664 -0.7826100537891221
15460374 0.6087913262670461 -0.7859921668109782
15504025 0.607675628205459 -0.7861683944180015
15547676 0.6035011207219572 -0.7877499146273119
15591327 0.601190427728414 -0.7882213821448735
15634978 0.6030092339503784 -0.7936721544799618
15678629 0.5956275333420935 -0.7933292271074035
15722280 0.593412130577255 -0.7919724635598452
15765931 0.5928525770730542 -0.7990554793332086
15809582 0.5867935286747095 -0.7977692896908267
15853233 0.5874656020660842 -0.7999717339863239
15896884 0.5819043561752083 -0.8031765304568446
15940535 0.5807372771647206 -0.8048389147672058
15984186 0.5808230752626005 -0.8076778732254293
16027837 0.5776501314421472 -0.8089041693241648
16071488 0.570270649650163 -0.8100302080315829
16115139 0.5685438064689116 -0.808199069995052
16158790 0.5678823307235176 -0.8113798025979618
16202441 0.5647208164443283 -0.8136553364750563
16246092 0.5597888506618437 -0.8145140668893345
16289743 0.5592580844718095 -0.8171118704230868
16333394 0.5599021469250095 -0.8192946915307789
16377045 0.555396805594932 -0.8222902924681739
16420696 0.5506002862849882 -0.8220365093105981
16464347 0.5509424001712683 -0.8231959458208471
16507998 0.5488622637265161 -0.8265997542258724
16551649 0.5411652000185407 -0.8298637006146933
16595300 0.5413970320559182 -0.8299501662569735
16638951 0.5386042425359764 -0.8305967085871154
16682602 0.5348254095351627 -0.8314246988925585
16726253 0.5340884701706782 -0.8365467910891311
16769904 0.5294551764441913 -0.8367024030634138
16813555 0.5289122899185705 -0.8379278516822584
16857206 0.5221745053201329 -0.8388699436144912
16900857 0.5212360026154705 -0.839005732285075
16944508 0.5173866032113974 -0.8418042538494158
16988159 0.5188646157819219 -0.8427502777180441
17031810 0.5137909895558719 -0.8470435246410302
17075461 0.5123290036765651 -0.8477118966316798
17119112 0.5073892825453169 -0.8495047229749642
17162763 0.5073401400460253 -0.8511922191241037
17206414 0.5018663570295717 -0.8531323789606619
17250065 0.4990995156791015 -0.8574846907359708
17293716 0.5261910586468207 -0.837918254970986
17337367 0.49259317110186107 -0.8576128754982247
17381018 0.48907109869502136 -0.8584493458900698
17424669 0.48568288055475267 -0.8605359002177989
17468320 0.4814369794294057 -0.8741357070138419
17511971 0.4786364128031004 -0.8633128964123387
17555622 0.4719331737123792 -0.8640339558624216
17599273 0.4304202127566328 -0.8545005102586698
17642924 0.4685429139794647 -0.8705981061078317
17686575 0.4646813136231906 -0.872031430969466
17730226 0.4549096274661303 -0.8618651751845221
17773877 0.45829096766230615 -0.8737122009820174
17817528 0.48986447761730106 -0.867145259671723
17861179 0.4503875779352387 -0.8781467749591311
17904830 0.44914738515676755 -0.8763258316144029
17948481 0.4486986727439261 -0.8604519077963494
17992132 0.4393768908700286 -0.8801563866625074
18035783 0.43776763951116016 -0.8833696467360166
18079434 0.4838423791407699 -0.8976468025616258
18123085 0.43686242018762517 -0.8881720474393987
18166736 0.4278283822318964 -0.8895847876484148
18210387 0.42198109746248946 -0.8903667878622233
18254038 0.4198447259930619 -0.8883044151664998
18297689 0.41748865289309406 -0.8939982820622863
18341340 0.41030612829814656 -0.8974517219353666
18384991 0.40589492419094897 -0.8937853105353756
18428642 0.40121657726563387 -0.901147834128272
18472293 0.39555961850696575 -0.8986995178747532
18515944 0.39301029059447895 -0.9031075301721293
18559595 0.38960257691731714 -0.9044001873983153
18603246 0.38677758664365836 -0.9030091608685324
18646897 0.38047672000832655 -0.9043840602043306
18690548 0.37736683481171446 -0.9057708109074843
18734199 0.3690594628393275 -0.9085906649530952
18777850 0.3661805031063031 -0.9068589239159602
18821501 0.3611058782972063 -0.9108134172757165
18865152 0.36038411305200435 -0.9141576521032484
18908803 0.35104131314023046 -0.9128685768461055
18952454 0.34764513542123615 -0.9133818781630276
18996105 0.33979797654841354 -0.9147788407462712
19039756 0.3335214988684201 -0.9189484443763523
19083407 0.3296219669423551 -0.9212698290103617
19127058 0.3246749800832034 -0.9208188120477288
19170709 0.3176632913773094 -0.9210380715749094
19214360 0.31488935532250717 -0.9197259960908063
19258011 0.30835554091675 -0.9239455623016716
19301662 0.3040334726911243 -0.9233025038788859
19345313 0.2928222049811777 -0.9259774324765839
19388964 0.2897777083124948 -0.9288238932563706
19432615 0.28491437010413606 -0.9278240217551469
19476266 0.2788805609476911 -0.931285297809826
19519917 0.2720799123976533 -0.9325424479246326
19563568 0.26355201087082275 -0.9309023014338894
19607219 0.25967017087630445 -0.9337576939700573
19650870 0.25039739307206593 -0.9323574813829238
19694521 0.24148596810246314 -0.9343708267842492
19738172 0.2346502413773731 -0.9352786592493021
19781823 0.22621546584876423 -0.934691744693759
19825474 0.21592105414169763 -0.9354855434432667
19869125 0.207723193849642 -0.9346722738162606
19912776 0.19918391006315486 -0.9326274676336725
19956427 0.18981192314588904 -0.9355994375060849
20000078 0.18118015432041018 -0.9335563931293046
20043729 0.17148727051868184 -0.9352173513908489
20087380 0.1601766960280906 -0.9340441871678551
20131031 0.15055287129136047 -0.934246967342383
20174682 0.13844951716947995 -0.9326804973243058
20218333 0.13010886189632553 -0.929519180193912
20261984 0.1154086845563277 -0.9268418788931599
20305635 0.10125931703405606 -0.928481252442276
20349286 0.08699997910442676 -0.9255576851250575
20392937 0.07279531428745878 -0.9192480608809223
20436588 0.05975815142924021 -0.9177660717058741
20480239 0.04338392752530561 -0.9083155597995057
20523890 0.02578421734748489 -0.9045614518777092
20567541 0.00901373871351779 -0.8982511719120367
20611192 -0.010330160942272413 -0.892806069078644
20654843 -0.029740419508670332 -0.8826171100939868
20698494 -0.04773182707036668 -0.8730519730285055
20742145 -0.0706289418499983 -0.8610205826648755
20785796 -0.08998685739074459 -0.8454855386704666
20829447 -0.11531564471628467 -0.8295042150975576
20873098 -0.13741897064276304 -0.8079909776658531
20916749 -0.16220611813807792 -0.7868509445608506
20960400 -0.18901150791523538 -0.7620557716407339
21004051 -0.21065705962886663 -0.7282398781300448
21047702 -0.23367986736517068 -0.6929272618234263
21091353 -0.2558982934976268 -0.6482763112596691
21135004 -0.273811426916777 -0.59931341368347
21178655 -0.28832404007509416 -0.5470812890895639
21222306 -0.2974336094398523 -0.482405369263548
21265957 -0.29880548706800847 -0.413502664518413
21309608 -0.2857499804294595 -0.3406423259864453
21353259 -0.2596264786446213 -0.2645915773354448
21396910 -0.2187649383849076 -0.18977432204051894
21440561 -0.16064463231537057 -0.11795949527184722
21484212 -0.08871689782443623 -0.060810336562181606
21527863 -0.0026135899635717245 -0.015595380315004063
21571514 0.08809429381730595 0.012891840178632569
21615165 0.18191416092653923 0.02103387249826804
21658816 0.2734943435526653 0.009291038509339836
